hour, t(sec), V1, VAngle1, V2, VAngle2, V3, VAngle3, I1, IAngle1, I2, IAngle2, I3, IAngle3
1, 0.00000, 219.393, 1.93668E-008, 219.393, -120, 219.393, 120, 6.6825E-013, -178.172, 7.94411E-014, -63.4349, 5.08423E-013, -63.4349
2, 0.00000, 219.393, 1.93668E-008, 219.393, -120, 219.393, 120, 6.6825E-013, -178.172, 7.94411E-014, -63.4349, 5.08423E-013, -63.4349
3, 0.00000, 219.393, 1.93668E-008, 219.393, -120, 219.393, 120, 6.6825E-013, -178.172, 7.94411E-014, -63.4349, 5.08423E-013, -63.4349
4, 0.00000, 219.393, 1.93668E-008, 219.393, -120, 219.393, 120, 6.6825E-013, -178.172, 7.94411E-014, -63.4349, 5.08423E-013, -63.4349
5, 0.00000, 219.393, 1.93668E-008, 219.393, -120, 219.393, 120, 6.6825E-013, -178.172, 7.94411E-014, -63.4349, 5.08423E-013, -63.4349
6, 0.00000, 219.393, 1.93668E-008, 219.393, -120, 219.393, 120, 6.6825E-013, -178.172, 7.94411E-014, -63.4349, 5.08423E-013, -63.4349
7, 0.00000, 219.36, -0.00818338, 219.36, -120.008, 219.36, 119.992, 7.61372, -179.995, 7.61372, 60.005, 7.61372, -59.995
8, 0.00000, 219.394, 0.000544706, 219.394, -119.999, 219.394, 120.001, 15.189, -179.973, 15.189, 60.0267, 15.189, -59.9733
9, 0.00000, 219.394, 0.000782821, 219.394, -119.999, 219.394, 120.001, 21.8271, -179.962, 21.8271, 60.0384, 21.8271, -59.9616
10, 0.00000, 219.394, 0.00127244, 219.394, -119.999, 219.394, 120.001, 35.4729, -179.938, 35.4729, 60.0624, 35.4729, -59.9376
11, 0.00000, 219.362, -0.00647482, 219.362, -120.006, 219.362, 119.994, 55.2269, -179.911, 55.2269, 60.0887, 55.2269, -59.9113
12, 0.00000, 219.362, -0.00627915, 219.362, -120.006, 219.362, 119.994, 60.6761, -179.902, 60.6761, 60.0983, 60.6761, -59.9017
13, 0.00000, 219.362, -0.00614712, 219.362, -120.006, 219.362, 119.994, 64.3524, -179.895, 64.3524, 60.1048, 64.3524, -59.8952
14, 0.00000, 219.395, 0.00230897, 219.395, -119.998, 219.395, 120.002, 64.3461, -179.887, 64.3461, 60.113, 64.3461, -59.887
15, 0.00000, 219.395, 0.00233849, 219.395, -119.998, 219.395, 120.002, 65.1678, -179.885, 65.1678, 60.1147, 65.1678, -59.8853
16, 0.00000, 219.395, 0.00227212, 219.395, -119.998, 219.395, 120.002, 63.3198, -179.889, 63.3198, 60.1114, 63.3198, -59.8886
17, 0.00000, 219.361, -0.00664469, 219.361, -120.007, 219.361, 119.993, 50.4957, -179.92, 50.4957, 60.0804, 50.4957, -59.9196
18, 0.00000, 219.361, -0.00739314, 219.361, -120.007, 219.361, 119.993, 29.643, -179.956, 29.643, 60.0437, 29.643, -59.9563
19, 0.00000, 219.362, -0.00605396, 219.362, -120.006, 219.362, 119.994, 66.3491, -179.892, 66.3491, 60.1083, 66.3491, -59.8917
20, 0.00000, 219.362, -0.00605289, 219.362, -120.006, 219.362, 119.994, 66.3061, -179.892, 66.3061, 60.1083, 66.3061, -59.8917
21, 0.00000, 219.362, -0.00594922, 219.362, -120.006, 219.362, 119.994, 69.1636, -179.887, 69.1636, 60.1133, 69.1636, -59.8867
22, 0.00000, 219.362, -0.00579423, 219.362, -120.006, 219.362, 119.994, 73.4356, -179.879, 73.4356, 60.1208, 73.4356, -59.8792
23, 0.00000, 219.36, -0.00845639, 219.36, -120.008, 219.36, 119.992, 1.10535E-012, 171.87, 2.35258E-013, -75.1243, 6.4311E-013, -45
24, 0.00000, 219.393, 1.89657E-008, 219.393, -120, 219.393, 120, 1.60608E-012, 178.986, 6.10498E-013, 44.2927, 9.09495E-013, -90
25, 0.00000, 219.393, 1.93668E-008, 219.393, -120, 219.393, 120, 6.68061E-013, 178.781, 8.58552E-014, -65.556, 5.08423E-013, -63.4349
26, 0.00000, 219.393, 1.93668E-008, 219.393, -120, 219.393, 120, 6.68061E-013, 178.781, 8.58552E-014, -65.556, 5.08423E-013, -63.4349
27, 0.00000, 219.39, -0.00285511, 219.39, -120.003, 219.39, 119.997, 78.9074, -0.138867, 78.9074, -120.139, 78.9074, 119.861
28, 0.00000, 219.39, -0.00285505, 219.39, -120.003, 219.39, 119.997, 78.9056, -0.138861, 78.9056, -120.139, 78.9056, 119.861
29, 0.00000, 219.39, -0.00285505, 219.39, -120.003, 219.39, 119.997, 78.9055, -0.138861, 78.9055, -120.139, 78.9055, 119.861
30, 0.00000, 219.39, -0.00285505, 219.39, -120.003, 219.39, 119.997, 78.9055, -0.138861, 78.9055, -120.139, 78.9055, 119.861
31, 0.00000, 219.36, -0.00818338, 219.36, -120.008, 219.36, 119.992, 7.61385, -179.995, 7.61385, 60.0049, 7.61385, -59.9951
32, 0.00000, 219.394, 0.000544688, 219.394, -119.999, 219.394, 120.001, 15.1885, -179.973, 15.1885, 60.0268, 15.1885, -59.9732
33, 0.00000, 219.394, 0.000782802, 219.394, -119.999, 219.394, 120.001, 21.8265, -179.962, 21.8265, 60.0385, 21.8265, -59.9615
34, 0.00000, 219.394, 0.00127244, 219.394, -119.999, 219.394, 120.001, 35.473, -179.938, 35.473, 60.0624, 35.473, -59.9376
35, 0.00000, 219.362, -0.00647482, 219.362, -120.006, 219.362, 119.994, 55.2271, -179.911, 55.2271, 60.0887, 55.2271, -59.9113
36, 0.00000, 219.362, -0.00627919, 219.362, -120.006, 219.362, 119.994, 60.6749, -179.902, 60.6749, 60.0984, 60.6749, -59.9016
37, 0.00000, 219.362, -0.00614715, 219.362, -120.006, 219.362, 119.994, 64.3516, -179.895, 64.3516, 60.1048, 64.3516, -59.8952
38, 0.00000, 219.395, 0.00230897, 219.395, -119.998, 219.395, 120.002, 64.3461, -179.887, 64.3461, 60.113, 64.3461, -59.887
39, 0.00000, 219.395, 0.00233848, 219.395, -119.998, 219.395, 120.002, 65.1676, -179.885, 65.1676, 60.1147, 65.1676, -59.8853
40, 0.00000, 219.395, 0.00227213, 219.395, -119.998, 219.395, 120.002, 63.3202, -179.889, 63.3202, 60.1114, 63.3202, -59.8886
41, 0.00000, 219.361, -0.00664469, 219.361, -120.007, 219.361, 119.993, 50.4957, -179.92, 50.4957, 60.0804, 50.4957, -59.9196
42, 0.00000, 219.361, -0.00739314, 219.361, -120.007, 219.361, 119.993, 29.643, -179.956, 29.643, 60.0437, 29.643, -59.9563
43, 0.00000, 219.362, -0.00605397, 219.362, -120.006, 219.362, 119.994, 66.3489, -179.892, 66.3489, 60.1083, 66.3489, -59.8917
44, 0.00000, 219.362, -0.00605289, 219.362, -120.006, 219.362, 119.994, 66.3061, -179.892, 66.3061, 60.1083, 66.3061, -59.8917
45, 0.00000, 219.362, -0.00594922, 219.362, -120.006, 219.362, 119.994, 69.1636, -179.887, 69.1636, 60.1133, 69.1636, -59.8867
46, 0.00000, 219.362, -0.00579423, 219.362, -120.006, 219.362, 119.994, 73.4356, -179.879, 73.4356, 60.1208, 73.4356, -59.8792
47, 0.00000, 219.36, -0.00845639, 219.36, -120.008, 219.36, 119.992, 1.10535E-012, 171.87, 2.35258E-013, -75.1243, 6.4311E-013, -45
48, 0.00000, 219.393, 1.89657E-008, 219.393, -120, 219.393, 120, 1.60608E-012, 178.986, 6.10498E-013, 44.2927, 9.09495E-013, -90
