hour, t(sec), V1, VAngle1, V2, VAngle2, V3, VAngle3, V4, VAngle4, I1, IAngle1, I2, IAngle2, I3, IAngle3, I4, IAngle4
1, 0.00000, 219.393, 1.93668E-008, 219.393, -120, 219.393, 120, 0, 0, 0, 0, 0, 0, 0, 0, 0, 0
2, 0.00000, 219.393, 1.93668E-008, 219.393, -120, 219.393, 120, 0, 0, 0, 0, 0, 0, 0, 0, 0, 0
3, 0.00000, 219.393, 1.93668E-008, 219.393, -120, 219.393, 120, 0, 0, 0, 0, 0, 0, 0, 0, 0, 0
4, 0.00000, 219.393, 1.93668E-008, 219.393, -120, 219.393, 120, 0, 0, 0, 0, 0, 0, 0, 0, 0, 0
5, 0.00000, 219.393, 1.93668E-008, 219.393, -120, 219.393, 120, 0, 0, 0, 0, 0, 0, 0, 0, 0, 0
6, 0.00000, 219.393, 1.93668E-008, 219.393, -120, 219.393, 120, 0, 0, 0, 0, 0, 0, 0, 0, 0, 0
7, 0.00000, 219.36, -0.00818338, 219.36, -120.008, 219.36, 119.992, 0, 0, 321.792, -31.7965, 321.792, -151.797, 321.792, 88.2035, 6.27983E-008, -151.797
8, 0.00000, 219.394, 0.000544706, 219.394, -119.999, 219.394, 120.001, 0, 0, 0, 0, 0, 0, 0, 0, 0, 0
9, 0.00000, 219.394, 0.000782821, 219.394, -119.999, 219.394, 120.001, 0, 0, 0, 0, 0, 0, 0, 0, 0, 0
10, 0.00000, 219.394, 0.00127244, 219.394, -119.999, 219.394, 120.001, 0, 0, 0, 0, 0, 0, 0, 0, 0, 0
11, 0.00000, 219.362, -0.00647482, 219.362, -120.006, 219.362, 119.994, 0, 0, 321.789, -31.7948, 321.789, -151.795, 321.789, 88.2052, 6.27979E-008, -151.795
12, 0.00000, 219.362, -0.00627915, 219.362, -120.006, 219.362, 119.994, 0, 0, 321.789, -31.7946, 321.789, -151.795, 321.789, 88.2054, 6.27978E-008, -151.795
13, 0.00000, 219.362, -0.00614712, 219.362, -120.006, 219.362, 119.994, 0, 0, 321.789, -31.7945, 321.789, -151.794, 321.789, 88.2055, 6.27978E-008, -151.795
14, 0.00000, 219.395, 0.00230897, 219.395, -119.998, 219.395, 120.002, 0, 0, 0, 0, 0, 0, 0, 0, 0, 0
15, 0.00000, 219.395, 0.00233849, 219.395, -119.998, 219.395, 120.002, 0, 0, 0, 0, 0, 0, 0, 0, 0, 0
16, 0.00000, 219.395, 0.00227212, 219.395, -119.998, 219.395, 120.002, 0, 0, 0, 0, 0, 0, 0, 0, 0, 0
17, 0.00000, 219.361, -0.00664469, 219.361, -120.007, 219.361, 119.993, 0, 0, 321.79, -31.795, 321.79, -151.795, 321.79, 88.205, 6.27978E-008, -151.795
18, 0.00000, 219.361, -0.00739314, 219.361, -120.007, 219.361, 119.993, 0, 0, 321.791, -31.7957, 321.791, -151.796, 321.791, 88.2043, 6.27983E-008, -151.796
19, 0.00000, 219.362, -0.00605396, 219.362, -120.006, 219.362, 119.994, 0, 0, 321.789, -31.7944, 321.789, -151.794, 321.789, 88.2056, 6.27978E-008, -151.794
20, 0.00000, 219.362, -0.00605289, 219.362, -120.006, 219.362, 119.994, 0, 0, 321.789, -31.7944, 321.789, -151.794, 321.789, 88.2056, 6.27979E-008, -151.794
21, 0.00000, 219.362, -0.00594922, 219.362, -120.006, 219.362, 119.994, 0, 0, 321.789, -31.7943, 321.789, -151.794, 321.789, 88.2057, 6.27979E-008, -151.794
22, 0.00000, 219.362, -0.00579423, 219.362, -120.006, 219.362, 119.994, 0, 0, 321.788, -31.7941, 321.788, -151.794, 321.788, 88.2059, 6.27978E-008, -151.794
23, 0.00000, 219.36, -0.00845639, 219.36, -120.008, 219.36, 119.992, 0, 0, 321.792, -31.7968, 321.792, -151.797, 321.792, 88.2032, 6.27986E-008, -151.797
24, 0.00000, 219.393, 1.89657E-008, 219.393, -120, 219.393, 120, 0, 0, 0, 0, 0, 0, 0, 0, 0, 0
25, 0.00000, 219.393, 1.93668E-008, 219.393, -120, 219.393, 120, 0, 0, 0, 0, 0, 0, 0, 0, 0, 0
26, 0.00000, 219.393, 1.93668E-008, 219.393, -120, 219.393, 120, 0, 0, 0, 0, 0, 0, 0, 0, 0, 0
27, 0.00000, 219.39, -0.00285511, 219.39, -120.003, 219.39, 119.997, 0, 0, 0, 0, 0, 0, 0, 0, 0, 0
28, 0.00000, 219.39, -0.00285505, 219.39, -120.003, 219.39, 119.997, 0, 0, 0, 0, 0, 0, 0, 0, 0, 0
29, 0.00000, 219.39, -0.00285505, 219.39, -120.003, 219.39, 119.997, 0, 0, 0, 0, 0, 0, 0, 0, 0, 0
30, 0.00000, 219.39, -0.00285505, 219.39, -120.003, 219.39, 119.997, 0, 0, 0, 0, 0, 0, 0, 0, 0, 0
31, 0.00000, 219.36, -0.00818338, 219.36, -120.008, 219.36, 119.992, 0, 0, 321.792, -31.7965, 321.792, -151.797, 321.792, 88.2035, 6.27984E-008, -151.797
32, 0.00000, 219.394, 0.000544688, 219.394, -119.999, 219.394, 120.001, 0, 0, 0, 0, 0, 0, 0, 0, 0, 0
33, 0.00000, 219.394, 0.000782802, 219.394, -119.999, 219.394, 120.001, 0, 0, 0, 0, 0, 0, 0, 0, 0, 0
34, 0.00000, 219.394, 0.00127244, 219.394, -119.999, 219.394, 120.001, 0, 0, 0, 0, 0, 0, 0, 0, 0, 0
35, 0.00000, 219.362, -0.00647482, 219.362, -120.006, 219.362, 119.994, 0, 0, 321.789, -31.7948, 321.789, -151.795, 321.789, 88.2052, 6.27978E-008, -151.795
36, 0.00000, 219.362, -0.00627919, 219.362, -120.006, 219.362, 119.994, 0, 0, 321.789, -31.7946, 321.789, -151.795, 321.789, 88.2054, 6.27979E-008, -151.795
37, 0.00000, 219.362, -0.00614715, 219.362, -120.006, 219.362, 119.994, 0, 0, 321.789, -31.7945, 321.789, -151.794, 321.789, 88.2055, 6.27978E-008, -151.795
38, 0.00000, 219.395, 0.00230897, 219.395, -119.998, 219.395, 120.002, 0, 0, 0, 0, 0, 0, 0, 0, 0, 0
39, 0.00000, 219.395, 0.00233848, 219.395, -119.998, 219.395, 120.002, 0, 0, 0, 0, 0, 0, 0, 0, 0, 0
40, 0.00000, 219.395, 0.00227213, 219.395, -119.998, 219.395, 120.002, 0, 0, 0, 0, 0, 0, 0, 0, 0, 0
41, 0.00000, 219.361, -0.00664469, 219.361, -120.007, 219.361, 119.993, 0, 0, 321.79, -31.795, 321.79, -151.795, 321.79, 88.205, 6.27979E-008, -151.795
42, 0.00000, 219.361, -0.00739314, 219.361, -120.007, 219.361, 119.993, 0, 0, 321.791, -31.7957, 321.791, -151.796, 321.791, 88.2043, 6.27983E-008, -151.796
43, 0.00000, 219.362, -0.00605397, 219.362, -120.006, 219.362, 119.994, 0, 0, 321.789, -31.7944, 321.789, -151.794, 321.789, 88.2056, 6.2798E-008, -151.794
44, 0.00000, 219.362, -0.00605289, 219.362, -120.006, 219.362, 119.994, 0, 0, 321.789, -31.7944, 321.789, -151.794, 321.789, 88.2056, 6.27979E-008, -151.794
45, 0.00000, 219.362, -0.00594922, 219.362, -120.006, 219.362, 119.994, 0, 0, 321.789, -31.7943, 321.789, -151.794, 321.789, 88.2057, 6.27977E-008, -151.794
46, 0.00000, 219.362, -0.00579423, 219.362, -120.006, 219.362, 119.994, 0, 0, 321.788, -31.7941, 321.788, -151.794, 321.788, 88.2059, 6.27978E-008, -151.794
47, 0.00000, 219.36, -0.00845639, 219.36, -120.008, 219.36, 119.992, 0, 0, 321.792, -31.7968, 321.792, -151.797, 321.792, 88.2032, 6.27986E-008, -151.797
48, 0.00000, 219.393, 1.89657E-008, 219.393, -120, 219.393, 120, 0, 0, 0, 0, 0, 0, 0, 0, 0, 0
