hour, t(sec), V1, VAngle1, V2, VAngle2, V3, VAngle3, V4, VAngle4, I1, IAngle1, I2, IAngle2, I3, IAngle3, I4, IAngle4
1, 0.00000, 219.393, -2.08284E-005, 219.393, -120, 219.393, 120, 0, 0, 0, 0, 0, 0, 0, 0, 0, 0
2, 0.00000, 219.393, -2.08284E-005, 219.393, -120, 219.393, 120, 0, 0, 0, 0, 0, 0, 0, 0, 0, 0
3, 0.00000, 219.393, -2.08284E-005, 219.393, -120, 219.393, 120, 0, 0, 0, 0, 0, 0, 0, 0, 0, 0
4, 0.00000, 219.393, -2.08284E-005, 219.393, -120, 219.393, 120, 0, 0, 0, 0, 0, 0, 0, 0, 0, 0
5, 0.00000, 219.393, -2.08284E-005, 219.393, -120, 219.393, 120, 0, 0, 0, 0, 0, 0, 0, 0, 0, 0
6, 0.00000, 219.393, -2.08284E-005, 219.393, -120, 219.393, 120, 0, 0, 0, 0, 0, 0, 0, 0, 0, 0
7, 0.00000, 219.375, -0.00560414, 219.375, -120.006, 219.375, 119.994, 0, 0, 405.192, -25.8475, 405.192, -145.848, 405.192, 94.1525, 1.5786E-007, -138.733
8, 0.00000, 219.394, 0.000539733, 219.394, -119.999, 219.394, 120.001, 0, 0, 0, 0, 0, 0, 0, 0, 0, 0
9, 0.00000, 219.394, 0.000787757, 219.394, -119.999, 219.394, 120.001, 0, 0, 0, 0, 0, 0, 0, 0, 0, 0
10, 0.00000, 219.394, 0.00130333, 219.394, -119.999, 219.394, 120.001, 0, 0, 0, 0, 0, 0, 0, 0, 0, 0
11, 0.00000, 219.376, -0.00379931, 219.376, -120.004, 219.376, 119.996, 0, 0, 405.189, -25.8457, 405.189, -145.846, 405.189, 94.1543, 3.39699E-005, 40.5618
12, 0.00000, 219.376, -0.00358657, 219.376, -120.004, 219.376, 119.996, 0, 0, 405.189, -25.8455, 405.189, -145.846, 405.189, 94.1545, 3.73861E-005, 37.3718
13, 0.00000, 219.376, -0.00344239, 219.376, -120.003, 219.376, 119.997, 0, 0, 405.189, -25.8454, 405.189, -145.845, 405.189, 94.1546, 4.38481E-005, 36.2425
14, 0.00000, 219.395, 0.0024205, 219.395, -119.998, 219.395, 120.002, 0, 0, 0, 0, 0, 0, 0, 0, 0, 0
15, 0.00000, 219.395, 0.00245282, 219.395, -119.998, 219.395, 120.002, 0, 0, 0, 0, 0, 0, 0, 0, 0, 0
16, 0.00000, 219.395, 0.00238016, 219.395, -119.998, 219.395, 120.002, 0, 0, 0, 0, 0, 0, 0, 0, 0, 0
17, 0.00000, 219.376, -0.00398292, 219.376, -120.004, 219.376, 119.996, 0, 0, 405.19, -25.8459, 405.19, -145.846, 405.19, 94.1541, 2.81018E-005, 36.2476
18, 0.00000, 219.375, -0.00478088, 219.375, -120.005, 219.375, 119.995, 0, 0, 405.191, -25.8467, 405.191, -145.847, 405.191, 94.1533, 1.61123E-005, 38.3373
19, 0.00000, 219.376, -0.00392118, 219.376, -120.004, 219.376, 119.996, 0, 0, 405.19, -25.8459, 405.19, -145.846, 405.19, 94.1542, 2.96617E-005, 24.0431
20, 0.00000, 219.376, -0.00399221, 219.376, -120.004, 219.376, 119.996, 0, 0, 405.19, -25.8459, 405.19, -145.846, 405.19, 94.1541, 3.1659E-005, 38.742
21, 0.00000, 219.376, -0.00390934, 219.376, -120.004, 219.376, 119.996, 0, 0, 405.19, -25.8458, 405.19, -145.846, 405.19, 94.1542, 2.58445E-005, 37.5244
22, 0.00000, 219.376, -0.00378504, 219.376, -120.004, 219.376, 119.996, 0, 0, 405.189, -25.8457, 405.189, -145.846, 405.189, 94.1543, 2.75075E-005, 36.6234
23, 0.00000, 219.374, -0.00588391, 219.374, -120.006, 219.374, 119.994, 0, 0, 405.193, -25.8478, 405.193, -145.848, 405.193, 94.1522, 4.5889E-007, -142.913
24, 0.00000, 219.393, -2.08285E-005, 219.393, -120, 219.393, 120, 0, 0, 0, 0, 0, 0, 0, 0, 0, 0
25, 0.00000, 219.393, -2.08284E-005, 219.393, -120, 219.393, 120, 0, 0, 0, 0, 0, 0, 0, 0, 0, 0
26, 0.00000, 219.393, -2.08284E-005, 219.393, -120, 219.393, 120, 0, 0, 0, 0, 0, 0, 0, 0, 0, 0
27, 0.00000, 219.391, -0.00209141, 219.391, -120.002, 219.391, 119.998, 0, 0, 0, 0, 0, 0, 0, 0, 0, 0
28, 0.00000, 219.391, -0.0020914, 219.391, -120.002, 219.391, 119.998, 0, 0, 0, 0, 0, 0, 0, 0, 0, 0
29, 0.00000, 219.391, -0.0020914, 219.391, -120.002, 219.391, 119.998, 0, 0, 0, 0, 0, 0, 0, 0, 0, 0
30, 0.00000, 219.391, -0.0020914, 219.391, -120.002, 219.391, 119.998, 0, 0, 0, 0, 0, 0, 0, 0, 0, 0
31, 0.00000, 219.375, -0.00560415, 219.375, -120.006, 219.375, 119.994, 0, 0, 405.192, -25.8475, 405.192, -145.848, 405.192, 94.1525, 1.56133E-005, -128.502
32, 0.00000, 219.394, 0.000539732, 219.394, -119.999, 219.394, 120.001, 0, 0, 0, 0, 0, 0, 0, 0, 0, 0
33, 0.00000, 219.394, 0.000787757, 219.394, -119.999, 219.394, 120.001, 0, 0, 0, 0, 0, 0, 0, 0, 0, 0
34, 0.00000, 219.394, 0.00130333, 219.394, -119.999, 219.394, 120.001, 0, 0, 0, 0, 0, 0, 0, 0, 0, 0
35, 0.00000, 219.376, -0.00379931, 219.376, -120.004, 219.376, 119.996, 0, 0, 405.189, -25.8457, 405.189, -145.846, 405.189, 94.1543, 3.40295E-005, 40.8853
36, 0.00000, 219.376, -0.00358657, 219.376, -120.004, 219.376, 119.996, 0, 0, 405.189, -25.8455, 405.189, -145.846, 405.189, 94.1545, 3.64261E-005, 37.1062
37, 0.00000, 219.376, -0.00344239, 219.376, -120.003, 219.376, 119.997, 0, 0, 405.189, -25.8454, 405.189, -145.845, 405.189, 94.1546, 4.32031E-005, 36.0703
38, 0.00000, 219.395, 0.0024205, 219.395, -119.998, 219.395, 120.002, 0, 0, 0, 0, 0, 0, 0, 0, 0, 0
39, 0.00000, 219.395, 0.00245282, 219.395, -119.998, 219.395, 120.002, 0, 0, 0, 0, 0, 0, 0, 0, 0, 0
40, 0.00000, 219.395, 0.00238017, 219.395, -119.998, 219.395, 120.002, 0, 0, 0, 0, 0, 0, 0, 0, 0, 0
41, 0.00000, 219.376, -0.00398274, 219.376, -120.004, 219.376, 119.996, 0, 0, 405.19, -25.8459, 405.19, -145.846, 405.19, 94.1541, 3.77732E-005, 36.398
42, 0.00000, 219.375, -0.00478087, 219.375, -120.005, 219.375, 119.995, 0, 0, 405.191, -25.8467, 405.191, -145.847, 405.191, 94.1533, 1.97189E-005, 40.0296
43, 0.00000, 219.376, -0.00392118, 219.376, -120.004, 219.376, 119.996, 0, 0, 405.19, -25.8459, 405.19, -145.846, 405.19, 94.1542, 2.9598E-005, 25.6517
44, 0.00000, 219.376, -0.00399221, 219.376, -120.004, 219.376, 119.996, 0, 0, 405.19, -25.8459, 405.19, -145.846, 405.19, 94.1541, 3.1657E-005, 38.7313
45, 0.00000, 219.376, -0.00390934, 219.376, -120.004, 219.376, 119.996, 0, 0, 405.19, -25.8458, 405.19, -145.846, 405.19, 94.1542, 2.58445E-005, 37.5245
46, 0.00000, 219.376, -0.00378504, 219.376, -120.004, 219.376, 119.996, 0, 0, 405.189, -25.8457, 405.189, -145.846, 405.189, 94.1543, 2.75075E-005, 36.6234
47, 0.00000, 219.374, -0.00588391, 219.374, -120.006, 219.374, 119.994, 0, 0, 405.193, -25.8478, 405.193, -145.848, 405.193, 94.1522, 4.5889E-007, -142.913
48, 0.00000, 219.393, -2.08285E-005, 219.393, -120, 219.393, 120, 0, 0, 0, 0, 0, 0, 0, 0, 0, 0
